T321C 000:162.242   SEGGER J-Link V6.70e Log File
T321C 000:162.980   DLL Compiled: Apr 17 2020 17:55:05
T321C 000:163.004   Logging started @ 2021-02-22 03:07
T321C 000:163.037 JLINK_SetWarnOutHandler(...)
T321C 000:163.063 - 0.037ms
T321C 000:163.102 JLINK_OpenEx(...)
T321C 000:166.399   Firmware: J-Link ARM-OB STM32 compiled Aug 22 2012 19:52:04
T321C 000:169.383   Hardware: V7.00
T321C 000:169.442   S/N: 20090928
T321C 000:169.472   OEM: SEGGER
T321C 000:169.500   Feature(s): RDI,FlashDL,FlashBP,JFlash,GDB
T321C 000:171.355   TELNET listener socket opened on port 19021
T321C 000:171.693   WEBSRV Starting webserver
T321C 000:172.386   WEBSRV Webserver running on local port 19080
T321C 000:172.433 - 9.342ms returns "O.K."
T321C 000:172.522 JLINK_GetEmuCaps()
T321C 000:172.546 - 0.034ms returns 0x88EA5833
T321C 000:172.578 JLINK_TIF_GetAvailable(...)
T321C 000:172.901 - 0.365ms
T321C 000:172.984 JLINK_SetErrorOutHandler(...)
T321C 000:173.017 - 0.048ms
T321C 000:173.109 JLINK_ExecCommand("ProjectFile = "D:\机器人队\1.DT35\我的程序\备用勿动\F4DT最简版\JLinkSettings.ini"", ...). 
T321C 000:209.992 - 36.959ms returns 0x00
T321C 000:237.095 JLINK_ExecCommand("Device = STM32F405RG", ...). 
T321C 000:321.773   Device "STM32F405RG" selected.
T321C 000:323.238 - 86.063ms returns 0x00
T321C 000:323.301 JLINK_ExecCommand("DisableConnectionTimeout", ...). 
T321C 000:323.343 - 0.024ms returns 0x01
T321C 000:323.513 JLINK_GetHardwareVersion()
T321C 000:323.540 - 0.041ms returns 0x11170
T321C 000:323.575 JLINK_GetDLLVersion()  returns 67005
T321C 000:323.654 JLINK_GetFirmwareString(...)
T321C 000:323.693 - 0.048ms
T321C 000:341.370 JLINK_GetDLLVersion()  returns 67005
T321C 000:341.425 JLINK_GetCompileDateTime()
T321C 000:341.443 - 0.027ms
T321C 000:355.211 JLINK_GetFirmwareString(...)
T321C 000:355.268 - 0.069ms
T321C 000:358.615 JLINK_GetHardwareVersion()
T321C 000:358.652 - 0.047ms returns 0x11170
T321C 000:389.337 JLINK_TIF_Select(JLINKARM_TIF_SWD)
T321C 000:390.490 - 1.188ms returns 0x00
T321C 000:390.603 JLINK_SetSpeed(5000)
T321C 000:390.869 - 0.297ms
T321C 000:390.923 JLINK_GetId()
T321C 000:402.998   Found SW-DP with ID 0x2BA01477
T321C 000:426.315   Found SW-DP with ID 0x2BA01477
T321C 000:432.000   Old FW that does not support reading DPIDR via DAP jobs
T321C 000:449.781   Unknown DP version. Assuming DPv0
T321C 000:453.648   Scanning AP map to find all available APs
T321C 000:467.153   AP[1]: Stopped AP scan as end of AP map has been reached
T321C 000:478.582   AP[0]: AHB-AP (IDR: 0x24770011)
T321C 000:482.759   Iterating through AP map to find AHB-AP to use
T321C 000:513.684   AP[0]: Core found
T321C 000:518.141   AP[0]: AHB-AP ROM base: 0xE00FF000
T321C 000:531.961   CPUID register: 0x410FC241. Implementer code: 0x41 (ARM)
T321C 000:543.428   Found Cortex-M4 r0p1, Little endian.
T321C 000:644.666    -- Max. mem block: 0x00002C18
T321C 000:644.824   CPU_ReadMem(4 bytes @ 0xE000EDF0)
T321C 000:645.893   CPU_WriteMem(4 bytes @ 0xE000EDF0)
T321C 000:646.611   CPU_ReadMem(4 bytes @ 0xE0002000)
T321C 000:654.009   FPUnit: 6 code (BP) slots and 2 literal slots
T321C 000:654.068   CPU_ReadMem(4 bytes @ 0xE000EDFC)
T321C 000:654.758   CPU_WriteMem(4 bytes @ 0xE000EDFC)
T321C 000:655.599   CPU_ReadMem(4 bytes @ 0xE0001000)
T321C 000:656.340   CPU_WriteMem(4 bytes @ 0xE0001000)
T321C 000:657.068   CPU_ReadMem(4 bytes @ 0xE000ED88)
T321C 000:657.790   CPU_WriteMem(4 bytes @ 0xE000ED88)
T321C 000:658.512   CPU_ReadMem(4 bytes @ 0xE000ED88)
T321C 000:659.180   CPU_WriteMem(4 bytes @ 0xE000ED88)
T321C 000:673.308   CoreSight components:
T321C 000:676.605   ROMTbl[0] @ E00FF000
T321C 000:676.665   CPU_ReadMem(64 bytes @ 0xE00FF000)
T321C 000:678.092   CPU_ReadMem(32 bytes @ 0xE000EFE0)
T321C 000:695.192   ROMTbl[0][0]: E000E000, CID: B105E00D, PID: 000BB00C SCS-M7
T321C 000:695.258   CPU_ReadMem(32 bytes @ 0xE0001FE0)
T321C 000:699.983   ROMTbl[0][1]: E0001000, CID: B105E00D, PID: 003BB002 DWT
T321C 000:700.053   CPU_ReadMem(32 bytes @ 0xE0002FE0)
T321C 000:704.690   ROMTbl[0][2]: E0002000, CID: B105E00D, PID: 002BB003 FPB
T321C 000:704.893   CPU_ReadMem(32 bytes @ 0xE0000FE0)
T321C 000:715.649   ROMTbl[0][3]: E0000000, CID: B105E00D, PID: 003BB001 ITM
T321C 000:715.727   CPU_ReadMem(32 bytes @ 0xE0040FE0)
T321C 000:733.221   ROMTbl[0][4]: E0040000, CID: B105900D, PID: 000BB9A1 TPIU
T321C 000:733.289   CPU_ReadMem(32 bytes @ 0xE0041FE0)
T321C 000:747.362   ROMTbl[0][5]: E0041000, CID: B105900D, PID: 000BB925 ETM
T321C 000:748.206 - 357.311ms   returns 0x2BA01477
T321C 000:748.266 JLINK_GetDLLVersion()  returns 67005
T321C 000:748.289 JLINK_CORE_GetFound()
T321C 000:748.307 - 0.027ms returns 0xE0000FF
T321C 000:748.330 JLINK_GetDebugInfo(0x100 = JLINKARM_ROM_TABLE_ADDR_INDEX)
T321C 000:748.361   Value=0xE00FF000
T321C 000:748.387 - 0.066ms returns 0x00
T321C 000:751.513 JLINK_GetDebugInfo(0x100 = JLINKARM_ROM_TABLE_ADDR_INDEX)
T321C 000:751.552   Value=0xE00FF000
T321C 000:751.578 - 0.074ms returns 0x00
T321C 000:751.601 JLINK_GetDebugInfo(0x101 = JLINKARM_DEBUG_INFO_ETM_ADDR_INDEX)
T321C 000:751.619   Value=0xE0041000
T321C 000:751.644 - 0.051ms returns 0x00
T321C 000:751.701   JLINK_ReadMemEx(0xE0041FD0, 0x0020 Bytes, ..., Flags = 0x02000004)
T321C 000:751.788   CPU_ReadMem(32 bytes @ 0xE0041FD0)
T321C 000:752.796   Data:  04 00 00 00 00 00 00 00 00 00 00 00 00 00 00 00 ...
T321C 000:752.843 - 1.166ms returns 0x20
T321C 000:752.888 JLINK_GetDebugInfo(0x102 = JLINKARM_DEBUG_INFO_MTB_ADDR_INDEX)
T321C 000:752.915   Value=0x00000000
T321C 000:752.940 - 0.061ms returns 0x00
T321C 000:752.962 JLINK_GetDebugInfo(0x103 = JLINKARM_DEBUG_INFO_TPIU_ADDR_INDEX)
T321C 000:752.981   Value=0xE0040000
T321C 000:753.006 - 0.052ms returns 0x00
T321C 000:753.026 JLINK_GetDebugInfo(0x104 = JLINKARM_DEBUG_INFO_ITM_ADDR_INDEX)
T321C 000:753.045   Value=0xE0000000
T321C 000:753.069 - 0.051ms returns 0x00
T321C 000:753.090 JLINK_GetDebugInfo(0x105 = JLINKARM_DEBUG_INFO_DWT_ADDR_INDEX)
T321C 000:753.108   Value=0xE0001000
T321C 000:753.132 - 0.051ms returns 0x00
T321C 000:753.153 JLINK_GetDebugInfo(0x106 = JLINKARM_DEBUG_INFO_FPB_ADDR_INDEX)
T321C 000:753.171   Value=0xE0002000
T321C 000:753.195 - 0.051ms returns 0x00
T321C 000:753.216 JLINK_GetDebugInfo(0x107 = JLINKARM_DEBUG_INFO_NVIC_ADDR_INDEX)
T321C 000:753.234   Value=0xE000E000
T321C 000:753.258 - 0.051ms returns 0x00
T321C 000:753.279 JLINK_GetDebugInfo(0x10C = JLINKARM_DEBUG_INFO_DBG_ADDR_INDEX)
T321C 000:753.297   Value=0xE000EDF0
T321C 000:753.321 - 0.051ms returns 0x00
T321C 000:753.341 JLINK_GetDebugInfo(0x01 = Unknown)
T321C 000:753.375   Value=0x00000001
T321C 000:753.399 - 0.066ms returns 0x00
T321C 000:753.431 JLINK_ReadMemU32(0xE000ED00, 0x0001 Items, ...)
T321C 000:753.471   CPU_ReadMem(4 bytes @ 0xE000ED00)
T321C 000:754.108   Data:  41 C2 0F 41
T321C 000:754.183    - CPUID
T321C 000:754.210 - 0.787ms returns 1
T321C 000:754.239 JLINK_GetDebugInfo(0x10F = JLINKARM_DEBUG_INFO_HAS_CORTEX_M_SECURITY_EXT_INDEX)
T321C 000:754.261   Value=0x00000000
T321C 000:754.285 - 0.055ms returns 0x00
T321C 000:754.313 JLINK_SetResetType(JLINKARM_CM3_RESET_TYPE_NORMAL)
T321C 000:754.331 - 0.027ms returns JLINKARM_CM3_RESET_TYPE_NORMAL
T321C 000:754.353 JLINK_Reset()
T321C 000:754.423   CPU is running
T321C 000:754.455   CPU_WriteMem(4 bytes @ 0xE000EDF0)
T321C 000:755.138   CPU is running
T321C 000:755.190   CPU_WriteMem(4 bytes @ 0xE000EDFC)
T321C 000:765.434   Reset: Halt core after reset via DEMCR.VC_CORERESET.
T321C 000:769.395   Reset: Reset device via AIRCR.SYSRESETREQ.
T321C 000:769.450   CPU is running
T321C 000:769.483   CPU_WriteMem(4 bytes @ 0xE000ED0C)
T321C 000:823.354   CPU_ReadMem(4 bytes @ 0xE000EDF0)
T321C 000:823.935   CPU_ReadMem(4 bytes @ 0xE000EDF0)
T321C 000:824.537   CPU is running
T321C 000:824.619   CPU_WriteMem(4 bytes @ 0xE000EDF0)
T321C 000:825.401   CPU is running
T321C 000:825.456   CPU_WriteMem(4 bytes @ 0xE000EDFC)
T321C 000:831.747   CPU_ReadMem(4 bytes @ 0xE000EDF0)
T321C 000:836.366   CPU_WriteMem(4 bytes @ 0xE0002000)
T321C 000:837.201   CPU_ReadMem(4 bytes @ 0xE000EDFC)
T321C 000:838.159   CPU_ReadMem(4 bytes @ 0xE0001000)
T321C 000:838.819 - 84.504ms
T321C 000:838.913 JLINK_Halt()
T321C 000:838.936 - 0.033ms returns 0x00
T321C 000:838.963 JLINK_ReadMemU32(0xE000EDF0, 0x0001 Items, ...)
T321C 000:839.009   CPU_ReadMem(4 bytes @ 0xE000EDF0)
T321C 000:839.710   Data:  03 00 03 00
T321C 000:839.768    - DHCSR
T321C 000:839.797 - 0.845ms returns 1
T321C 000:839.838 JLINK_WriteU32(0xE000EDF0, 0xA05F0003)
T321C 000:839.861    - DHCSR
T321C 000:839.952   CPU_WriteMem(4 bytes @ 0xE000EDF0)
T321C 000:840.805 - 0.997ms returns 0
T321C 000:840.863 JLINK_WriteU32(0xE000EDFC, 0x01000000)
T321C 000:840.888    - DEMCR
T321C 000:840.940   CPU_WriteMem(4 bytes @ 0xE000EDFC)
T321C 000:841.609 - 0.790ms returns 0
T321C 000:904.474 JLINK_GetHWStatus(...)
T321C 000:904.897 - 0.459ms returns 0x00
T321C 000:926.143 JLINK_GetNumBPUnits(Type = 0xFFFFFF00)
T321C 000:926.204 - 0.074ms returns 0x06
T321C 000:926.233 JLINK_GetNumBPUnits(Type = 0xF0)
T321C 000:926.254 - 0.031ms returns 0x2000
T321C 000:926.278 JLINK_GetNumWPUnits()
T321C 000:926.297 - 0.029ms returns 0x04
T321C 000:955.470 JLINK_GetSpeed()
T321C 000:955.528 - 0.069ms returns 0xFA0
T321C 000:969.084 JLINK_ReadMemU32(0xE000E004, 0x0001 Items, ...)
T321C 000:969.171   CPU_ReadMem(4 bytes @ 0xE000E004)
T321C 000:969.891   Data:  02 00 00 00
T321C 000:969.941 - 0.868ms returns 1
T321C 000:969.972 JLINK_ReadMemU32(0xE000E004, 0x0001 Items, ...)
T321C 000:970.010   CPU_ReadMem(4 bytes @ 0xE000E004)
T321C 000:970.707   Data:  02 00 00 00
T321C 000:970.761 - 0.799ms returns 1
T321C 000:970.794 JLINK_WriteMemEx(0xE0001000, 0x001C Bytes, ..., Flags = 0x02000004)
T321C 000:970.819   Data:  01 00 00 00 00 00 00 00 00 00 00 00 00 00 00 00 ...
T321C 000:972.317   CPU_WriteMem(28 bytes @ 0xE0001000)
T321C 000:973.243 - 2.501ms returns 0x1C
T321C 000:973.350 JLINK_Halt()
T321C 000:973.375 - 0.036ms returns 0x00
T321C 000:973.405 JLINK_IsHalted()
T321C 000:973.437 - 0.042ms returns TRUE
T321C 000:992.977 JLINK_WriteMem(0x20000000, 0x0180 Bytes, ...)
T321C 000:993.022   Data:  00 BE 0A E0 0D 78 2D 06 68 40 08 24 40 00 00 D3 ...
T321C 000:994.497   CPU_WriteMem(384 bytes @ 0x20000000)
T321C 000:999.701 - 6.762ms returns 0x180
T321C 000:999.918 JLINK_WriteReg(R0, 0x08000000)
T321C 000:999.961 - 0.056ms returns 0x00
T321C 000:999.988 JLINK_WriteReg(R1, 0x044AA200)
T321C 001:000.010 - 0.033ms returns 0x00
T321C 001:000.034 JLINK_WriteReg(R2, 0x00000001)
T321C 001:000.056 - 0.031ms returns 0x00
T321C 001:000.079 JLINK_WriteReg(R3, 0x00000000)
T321C 001:000.100 - 0.031ms returns 0x00
T321C 001:000.124 JLINK_WriteReg(R4, 0x00000000)
T321C 001:000.145 - 0.031ms returns 0x00
T321C 001:000.169 JLINK_WriteReg(R5, 0x00000000)
T321C 001:000.190 - 0.039ms returns 0x00
T321C 001:000.229 JLINK_WriteReg(R6, 0x00000000)
T321C 001:000.342 - 0.136ms returns 0x00
T321C 001:000.384 JLINK_WriteReg(R7, 0x00000000)
T321C 001:000.409 - 0.035ms returns 0x00
T321C 001:000.433 JLINK_WriteReg(R8, 0x00000000)
T321C 001:000.455 - 0.032ms returns 0x00
T321C 001:000.478 JLINK_WriteReg(R9, 0x2000017C)
T321C 001:000.500 - 0.031ms returns 0x00
T321C 001:000.523 JLINK_WriteReg(R10, 0x00000000)
T321C 001:000.545 - 0.032ms returns 0x00
T321C 001:000.569 JLINK_WriteReg(R11, 0x00000000)
T321C 001:000.590 - 0.031ms returns 0x00
T321C 001:000.614 JLINK_WriteReg(R12, 0x00000000)
T321C 001:000.636 - 0.032ms returns 0x00
T321C 001:000.660 JLINK_WriteReg(R13 (SP), 0x20001000)
T321C 001:000.685 - 0.035ms returns 0x00
T321C 001:000.711 JLINK_WriteReg(R14, 0x20000001)
T321C 001:000.767 - 0.084ms returns 0x00
T321C 001:000.815 JLINK_WriteReg(R15 (PC), 0x20000054)
T321C 001:000.842 - 0.039ms returns 0x00
T321C 001:000.867 JLINK_WriteReg(XPSR, 0x01000000)
T321C 001:000.897 - 0.042ms returns 0x00
T321C 001:000.929 JLINK_WriteReg(MSP, 0x20001000)
T321C 001:000.956 - 0.043ms returns 0x00
T321C 001:000.991 JLINK_WriteReg(PSP, 0x20001000)
T321C 001:001.019 - 0.039ms returns 0x00
T321C 001:001.044 JLINK_WriteReg(CFBP, 0x00000000)
T321C 001:001.077 - 0.049ms returns 0x00
T321C 001:001.111   JLINK_SetBPEx(Addr = 0x20000000, Type = 0xFFFFFFF2)
T321C 001:001.165   CPU_ReadMem(2 bytes @ 0x20000000)
T321C 001:001.787 - 0.708ms returns 0x00000001
T321C 001:001.837 JLINK_Go()
T321C 001:001.872   CPU_WriteMem(2 bytes @ 0x20000000)
T321C 001:002.568   CPU_ReadMem(4 bytes @ 0xE0001000)
T321C 001:003.272   CPU_WriteMem(4 bytes @ 0xE0002008)
T321C 001:003.333   CPU_WriteMem(4 bytes @ 0xE000200C)
T321C 001:003.363   CPU_WriteMem(4 bytes @ 0xE0002010)
T321C 001:003.393   CPU_WriteMem(4 bytes @ 0xE0002014)
T321C 001:003.423   CPU_WriteMem(4 bytes @ 0xE0002018)
T321C 001:003.454   CPU_WriteMem(4 bytes @ 0xE000201C)
T321C 001:005.993   CPU_WriteMem(4 bytes @ 0xE0001004)
T321C 001:010.531 - 8.731ms
T321C 001:010.594 JLINK_IsHalted()
T321C 001:014.241   CPU_ReadMem(2 bytes @ 0x20000000)
T321C 001:014.956 - 4.397ms returns TRUE
T321C 001:015.017 JLINK_ReadReg(R15 (PC))
T321C 001:015.050 - 0.045ms returns 0x20000000
T321C 001:015.076 JLINK_ClrBPEx(BPHandle = 0x00000001)
T321C 001:015.100 - 0.034ms returns 0x00
T321C 001:015.126 JLINK_ReadReg(R0)
T321C 001:015.148 - 0.032ms returns 0x00000000
T321C 001:017.451 JLINK_WriteReg(R0, 0x08000000)
T321C 001:017.513 - 0.075ms returns 0x00
T321C 001:017.541 JLINK_WriteReg(R1, 0x00004000)
T321C 001:017.565 - 0.034ms returns 0x00
T321C 001:017.590 JLINK_WriteReg(R2, 0x000000FF)
T321C 001:017.612 - 0.032ms returns 0x00
T321C 001:017.635 JLINK_WriteReg(R3, 0x00000000)
T321C 001:017.657 - 0.032ms returns 0x00
T321C 001:017.681 JLINK_WriteReg(R4, 0x00000000)
T321C 001:017.703 - 0.032ms returns 0x00
T321C 001:017.727 JLINK_WriteReg(R5, 0x00000000)
T321C 001:017.748 - 0.031ms returns 0x00
T321C 001:017.772 JLINK_WriteReg(R6, 0x00000000)
T321C 001:017.793 - 0.031ms returns 0x00
T321C 001:017.817 JLINK_WriteReg(R7, 0x00000000)
T321C 001:017.838 - 0.031ms returns 0x00
T321C 001:017.861 JLINK_WriteReg(R8, 0x00000000)
T321C 001:017.883 - 0.031ms returns 0x00
T321C 001:017.906 JLINK_WriteReg(R9, 0x2000017C)
T321C 001:017.928 - 0.031ms returns 0x00
T321C 001:017.951 JLINK_WriteReg(R10, 0x00000000)
T321C 001:017.973 - 0.032ms returns 0x00
T321C 001:017.997 JLINK_WriteReg(R11, 0x00000000)
T321C 001:018.019 - 0.032ms returns 0x00
T321C 001:018.043 JLINK_WriteReg(R12, 0x00000000)
T321C 001:018.065 - 0.032ms returns 0x00
T321C 001:018.088 JLINK_WriteReg(R13 (SP), 0x20001000)
T321C 001:018.112 - 0.033ms returns 0x00
T321C 001:018.135 JLINK_WriteReg(R14, 0x20000001)
T321C 001:018.157 - 0.031ms returns 0x00
T321C 001:018.180 JLINK_WriteReg(R15 (PC), 0x20000020)
T321C 001:018.207 - 0.037ms returns 0x00
T321C 001:018.232 JLINK_WriteReg(XPSR, 0x01000000)
T321C 001:018.254 - 0.032ms returns 0x00
T321C 001:018.277 JLINK_WriteReg(MSP, 0x20001000)
T321C 001:018.298 - 0.031ms returns 0x00
T321C 001:018.322 JLINK_WriteReg(PSP, 0x20001000)
T321C 001:018.344 - 0.032ms returns 0x00
T321C 001:018.367 JLINK_WriteReg(CFBP, 0x00000000)
T321C 001:018.389 - 0.032ms returns 0x00
T321C 001:018.416   JLINK_SetBPEx(Addr = 0x20000000, Type = 0xFFFFFFF2)
T321C 001:018.451 - 0.047ms returns 0x00000002
T321C 001:018.476 JLINK_Go()
T321C 001:018.524   CPU_ReadMem(4 bytes @ 0xE0001000)
T321C 001:022.589 - 4.150ms
T321C 001:022.650 JLINK_IsHalted()
T321C 001:026.179   CPU_ReadMem(2 bytes @ 0x20000000)
T321C 001:026.924 - 4.309ms returns TRUE
T321C 001:026.993 JLINK_ReadReg(R15 (PC))
T321C 001:027.029 - 0.047ms returns 0x20000000
T321C 001:027.056 JLINK_ClrBPEx(BPHandle = 0x00000002)
T321C 001:027.081 - 0.035ms returns 0x00
T321C 001:027.110 JLINK_ReadReg(R0)
T321C 001:027.145 - 0.046ms returns 0x00000001
T321C 001:027.181 JLINK_WriteReg(R0, 0x08000000)
T321C 001:027.205 - 0.035ms returns 0x00
T321C 001:027.230 JLINK_WriteReg(R1, 0x00004000)
T321C 001:027.251 - 0.032ms returns 0x00
T321C 001:027.275 JLINK_WriteReg(R2, 0x000000FF)
T321C 001:027.297 - 0.032ms returns 0x00
T321C 001:027.325 JLINK_WriteReg(R3, 0x00000000)
T321C 001:027.346 - 0.031ms returns 0x00
T321C 001:027.375 JLINK_WriteReg(R4, 0x00000000)
T321C 001:027.414 - 0.050ms returns 0x00
T321C 001:027.441 JLINK_WriteReg(R5, 0x00000000)
T321C 001:027.481 - 0.050ms returns 0x00
T321C 001:027.505 JLINK_WriteReg(R6, 0x00000000)
T321C 001:027.527 - 0.035ms returns 0x00
T321C 001:027.575 JLINK_WriteReg(R7, 0x00000000)
T321C 001:027.643 - 0.083ms returns 0x00
T321C 001:027.681 JLINK_WriteReg(R8, 0x00000000)
T321C 001:027.704 - 0.034ms returns 0x00
T321C 001:027.739 JLINK_WriteReg(R9, 0x2000017C)
T321C 001:027.770 - 0.042ms returns 0x00
T321C 001:027.797 JLINK_WriteReg(R10, 0x00000000)
T321C 001:027.819 - 0.032ms returns 0x00
T321C 001:027.843 JLINK_WriteReg(R11, 0x00000000)
T321C 001:027.865 - 0.032ms returns 0x00
T321C 001:027.889 JLINK_WriteReg(R12, 0x00000000)
T321C 001:027.911 - 0.032ms returns 0x00
T321C 001:027.939 JLINK_WriteReg(R13 (SP), 0x20001000)
T321C 001:027.962 - 0.034ms returns 0x00
T321C 001:027.991 JLINK_WriteReg(R14, 0x20000001)
T321C 001:028.013 - 0.033ms returns 0x00
T321C 001:028.041 JLINK_WriteReg(R15 (PC), 0x200000BC)
T321C 001:028.062 - 0.032ms returns 0x00
T321C 001:028.090 JLINK_WriteReg(XPSR, 0x01000000)
T321C 001:028.112 - 0.058ms returns 0x00
T321C 001:028.167 JLINK_WriteReg(MSP, 0x20001000)
T321C 001:028.191 - 0.035ms returns 0x00
T321C 001:028.218 JLINK_WriteReg(PSP, 0x20001000)
T321C 001:028.239 - 0.032ms returns 0x00
T321C 001:028.267 JLINK_WriteReg(CFBP, 0x00000000)
T321C 001:028.288 - 0.031ms returns 0x00
T321C 001:028.321   JLINK_SetBPEx(Addr = 0x20000000, Type = 0xFFFFFFF2)
T321C 001:028.355 - 0.047ms returns 0x00000003
T321C 001:028.382 JLINK_Go()
T321C 001:028.430   CPU_ReadMem(4 bytes @ 0xE0001000)
T321C 001:032.580 - 4.233ms
T321C 001:032.647 JLINK_IsHalted()
T321C 001:033.225 - 0.622ms returns FALSE
T321C 001:141.181 JLINK_IsHalted()
T321C 001:141.865 - 0.712ms returns FALSE
T321C 001:143.178 JLINK_IsHalted()
T321C 001:143.928 - 0.783ms returns FALSE
T321C 001:145.205 JLINK_IsHalted()
T321C 001:145.991 - 0.821ms returns FALSE
T321C 001:207.017 JLINK_IsHalted()
T321C 001:207.715 - 0.733ms returns FALSE
T321C 001:208.981 JLINK_IsHalted()
T321C 001:209.641 - 0.697ms returns FALSE
T321C 001:211.000 JLINK_IsHalted()
T321C 001:211.722 - 0.758ms returns FALSE
T321C 001:237.975 JLINK_IsHalted()
T321C 001:238.651 - 0.712ms returns FALSE
T321C 001:240.216 JLINK_IsHalted()
T321C 001:240.883 - 0.709ms returns FALSE
T321C 001:301.742 JLINK_IsHalted()
T321C 001:302.497 - 0.790ms returns FALSE
T321C 001:303.783 JLINK_IsHalted()
T321C 001:304.469 - 0.720ms returns FALSE
T321C 001:331.869 JLINK_IsHalted()
T321C 001:332.771 - 0.957ms returns FALSE
T321C 001:334.051 JLINK_IsHalted()
T321C 001:334.829 - 0.825ms returns FALSE
T321C 001:361.988 JLINK_IsHalted()
T321C 001:362.763 - 0.813ms returns FALSE
T321C 001:364.851 JLINK_IsHalted()
T321C 001:365.691 - 0.886ms returns FALSE
T321C 001:436.770 JLINK_IsHalted()
T321C 001:440.471   CPU_ReadMem(2 bytes @ 0x20000000)
T321C 001:441.244 - 4.513ms returns TRUE
T321C 001:441.310 JLINK_ReadReg(R15 (PC))
T321C 001:441.346 - 0.048ms returns 0x20000000
T321C 001:441.373 JLINK_ClrBPEx(BPHandle = 0x00000003)
T321C 001:441.397 - 0.034ms returns 0x00
T321C 001:441.421 JLINK_ReadReg(R0)
T321C 001:441.443 - 0.032ms returns 0x00000000
T321C 001:449.104 JLINK_WriteReg(R0, 0x08004000)
T321C 001:449.171 - 0.080ms returns 0x00
T321C 001:449.199 JLINK_WriteReg(R1, 0x00004000)
T321C 001:449.222 - 0.033ms returns 0x00
T321C 001:449.247 JLINK_WriteReg(R2, 0x000000FF)
T321C 001:449.269 - 0.032ms returns 0x00
T321C 001:449.292 JLINK_WriteReg(R3, 0x00000000)
T321C 001:449.314 - 0.032ms returns 0x00
T321C 001:449.338 JLINK_WriteReg(R4, 0x00000000)
T321C 001:449.359 - 0.031ms returns 0x00
T321C 001:449.382 JLINK_WriteReg(R5, 0x00000000)
T321C 001:449.403 - 0.031ms returns 0x00
T321C 001:449.427 JLINK_WriteReg(R6, 0x00000000)
T321C 001:449.448 - 0.031ms returns 0x00
T321C 001:449.471 JLINK_WriteReg(R7, 0x00000000)
T321C 001:449.567 - 0.114ms returns 0x00
T321C 001:449.607 JLINK_WriteReg(R8, 0x00000000)
T321C 001:449.634 - 0.050ms returns 0x00
T321C 001:449.679 JLINK_WriteReg(R9, 0x2000017C)
T321C 001:449.700 - 0.032ms returns 0x00
T321C 001:449.724 JLINK_WriteReg(R10, 0x00000000)
T321C 001:449.745 - 0.031ms returns 0x00
T321C 001:449.769 JLINK_WriteReg(R11, 0x00000000)
T321C 001:449.791 - 0.032ms returns 0x00
T321C 001:449.814 JLINK_WriteReg(R12, 0x00000000)
T321C 001:449.836 - 0.031ms returns 0x00
T321C 001:449.859 JLINK_WriteReg(R13 (SP), 0x20001000)
T321C 001:449.883 - 0.034ms returns 0x00
T321C 001:449.907 JLINK_WriteReg(R14, 0x20000001)
T321C 001:449.928 - 0.031ms returns 0x00
T321C 001:449.952 JLINK_WriteReg(R15 (PC), 0x20000020)
T321C 001:449.974 - 0.032ms returns 0x00
T321C 001:449.997 JLINK_WriteReg(XPSR, 0x01000000)
T321C 001:450.019 - 0.031ms returns 0x00
T321C 001:450.042 JLINK_WriteReg(MSP, 0x20001000)
T321C 001:450.063 - 0.031ms returns 0x00
T321C 001:450.087 JLINK_WriteReg(PSP, 0x20001000)
T321C 001:450.108 - 0.031ms returns 0x00
T321C 001:450.131 JLINK_WriteReg(CFBP, 0x00000000)
T321C 001:450.153 - 0.031ms returns 0x00
T321C 001:450.180   JLINK_SetBPEx(Addr = 0x20000000, Type = 0xFFFFFFF2)
T321C 001:450.214 - 0.047ms returns 0x00000004
T321C 001:450.239 JLINK_Go()
T321C 001:450.289   CPU_ReadMem(4 bytes @ 0xE0001000)
T321C 001:454.774 - 4.595ms
T321C 001:454.863 JLINK_IsHalted()
T321C 001:458.771   CPU_ReadMem(2 bytes @ 0x20000000)
T321C 001:459.631 - 4.822ms returns TRUE
T321C 001:459.714 JLINK_ReadReg(R15 (PC))
T321C 001:459.751 - 0.049ms returns 0x20000000
T321C 001:459.778 JLINK_ClrBPEx(BPHandle = 0x00000004)
T321C 001:459.802 - 0.034ms returns 0x00
T321C 001:459.827 JLINK_ReadReg(R0)
T321C 001:459.849 - 0.032ms returns 0x00000001
T321C 001:459.882 JLINK_WriteReg(R0, 0x08004000)
T321C 001:459.906 - 0.034ms returns 0x00
T321C 001:459.930 JLINK_WriteReg(R1, 0x00004000)
T321C 001:459.951 - 0.031ms returns 0x00
T321C 001:459.974 JLINK_WriteReg(R2, 0x000000FF)
T321C 001:459.996 - 0.031ms returns 0x00
T321C 001:460.019 JLINK_WriteReg(R3, 0x00000000)
T321C 001:460.040 - 0.031ms returns 0x00
T321C 001:460.063 JLINK_WriteReg(R4, 0x00000000)
T321C 001:460.084 - 0.031ms returns 0x00
T321C 001:460.107 JLINK_WriteReg(R5, 0x00000000)
T321C 001:460.128 - 0.031ms returns 0x00
T321C 001:460.152 JLINK_WriteReg(R6, 0x00000000)
T321C 001:460.173 - 0.031ms returns 0x00
T321C 001:460.196 JLINK_WriteReg(R7, 0x00000000)
T321C 001:460.217 - 0.031ms returns 0x00
T321C 001:460.240 JLINK_WriteReg(R8, 0x00000000)
T321C 001:460.261 - 0.031ms returns 0x00
T321C 001:460.284 JLINK_WriteReg(R9, 0x2000017C)
T321C 001:460.305 - 0.031ms returns 0x00
T321C 001:460.328 JLINK_WriteReg(R10, 0x00000000)
T321C 001:460.350 - 0.031ms returns 0x00
T321C 001:460.373 JLINK_WriteReg(R11, 0x00000000)
T321C 001:460.394 - 0.031ms returns 0x00
T321C 001:460.418 JLINK_WriteReg(R12, 0x00000000)
T321C 001:460.439 - 0.031ms returns 0x00
T321C 001:460.462 JLINK_WriteReg(R13 (SP), 0x20001000)
T321C 001:460.485 - 0.032ms returns 0x00
T321C 001:460.514 JLINK_WriteReg(R14, 0x20000001)
T321C 001:460.537 - 0.033ms returns 0x00
T321C 001:460.561 JLINK_WriteReg(R15 (PC), 0x200000BC)
T321C 001:460.584 - 0.033ms returns 0x00
T321C 001:460.609 JLINK_WriteReg(XPSR, 0x01000000)
T321C 001:460.634 - 0.041ms returns 0x00
T321C 001:460.676 JLINK_WriteReg(MSP, 0x20001000)
T321C 001:460.724 - 0.063ms returns 0x00
T321C 001:460.759 JLINK_WriteReg(PSP, 0x20001000)
T321C 001:460.782 - 0.034ms returns 0x00
T321C 001:460.806 JLINK_WriteReg(CFBP, 0x00000000)
T321C 001:460.828 - 0.031ms returns 0x00
T321C 001:460.854   JLINK_SetBPEx(Addr = 0x20000000, Type = 0xFFFFFFF2)
T321C 001:460.888 - 0.046ms returns 0x00000005
T321C 001:460.912 JLINK_Go()
T321C 001:460.962   CPU_ReadMem(4 bytes @ 0xE0001000)
T321C 001:465.276 - 4.398ms
T321C 001:465.334 JLINK_IsHalted()
T321C 001:466.020 - 0.719ms returns FALSE
T321C 001:484.642 JLINK_IsHalted()
T321C 001:485.399 - 0.808ms returns FALSE
T321C 001:487.514 JLINK_IsHalted()
T321C 001:488.222 - 0.738ms returns FALSE
T321C 001:517.606 JLINK_IsHalted()
T321C 001:518.285 - 0.737ms returns FALSE
T321C 001:520.577 JLINK_IsHalted()
T321C 001:521.242 - 0.708ms returns FALSE
T321C 001:523.453 JLINK_IsHalted()
T321C 001:524.148 - 0.729ms returns FALSE
T321C 001:548.475 JLINK_IsHalted()
T321C 001:549.192 - 0.752ms returns FALSE
T321C 001:550.675 JLINK_IsHalted()
T321C 001:551.393 - 0.766ms returns FALSE
T321C 001:553.424 JLINK_IsHalted()
T321C 001:554.334 - 0.962ms returns FALSE
T321C 001:580.426 JLINK_IsHalted()
T321C 001:581.174 - 0.804ms returns FALSE
T321C 001:583.369 JLINK_IsHalted()
T321C 001:584.090 - 0.755ms returns FALSE
T321C 001:585.367 JLINK_IsHalted()
T321C 001:586.081 - 0.771ms returns FALSE
T321C 001:616.345 JLINK_IsHalted()
T321C 001:617.110 - 0.804ms returns FALSE
T321C 001:640.175 JLINK_IsHalted()
T321C 001:640.930 - 0.801ms returns FALSE
T321C 001:643.225 JLINK_IsHalted()
T321C 001:643.957 - 0.768ms returns FALSE
T321C 001:646.222 JLINK_IsHalted()
T321C 001:646.961 - 0.772ms returns FALSE
T321C 001:649.034 JLINK_IsHalted()
T321C 001:649.679 - 0.676ms returns FALSE
T321C 001:673.137 JLINK_IsHalted()
T321C 001:673.891 - 0.796ms returns FALSE
T321C 001:675.978 JLINK_IsHalted()
T321C 001:676.655 - 0.713ms returns FALSE
T321C 001:678.131 JLINK_IsHalted()
T321C 001:678.924 - 0.849ms returns FALSE
T321C 001:680.973 JLINK_IsHalted()
T321C 001:681.705 - 0.767ms returns FALSE
T321C 001:733.939 JLINK_IsHalted()
T321C 001:734.766 - 0.882ms returns FALSE
T321C 001:736.982 JLINK_IsHalted()
T321C 001:737.704 - 0.752ms returns FALSE
T321C 001:739.619 JLINK_IsHalted()
T321C 001:740.293 - 0.713ms returns FALSE
T321C 001:765.867 JLINK_IsHalted()
T321C 001:766.649 - 0.816ms returns FALSE
T321C 001:768.874 JLINK_IsHalted()
T321C 001:769.760 - 0.937ms returns FALSE
T321C 001:799.810 JLINK_IsHalted()
T321C 001:800.538 - 0.760ms returns FALSE
T321C 001:801.801 JLINK_IsHalted()
T321C 001:802.456 - 0.691ms returns FALSE
T321C 001:861.514 JLINK_IsHalted()
T321C 001:865.336   CPU_ReadMem(2 bytes @ 0x20000000)
T321C 001:866.103 - 4.628ms returns TRUE
T321C 001:866.169 JLINK_ReadReg(R15 (PC))
T321C 001:866.205 - 0.047ms returns 0x20000000
T321C 001:866.231 JLINK_ClrBPEx(BPHandle = 0x00000005)
T321C 001:866.256 - 0.034ms returns 0x00
T321C 001:866.281 JLINK_ReadReg(R0)
T321C 001:866.303 - 0.032ms returns 0x00000000
T321C 001:867.413 JLINK_WriteReg(R0, 0x00000001)
T321C 001:867.462 - 0.060ms returns 0x00
T321C 001:867.488 JLINK_WriteReg(R1, 0x00004000)
T321C 001:867.510 - 0.032ms returns 0x00
T321C 001:867.534 JLINK_WriteReg(R2, 0x000000FF)
T321C 001:867.555 - 0.031ms returns 0x00
T321C 001:867.579 JLINK_WriteReg(R3, 0x00000000)
T321C 001:867.600 - 0.031ms returns 0x00
T321C 001:867.624 JLINK_WriteReg(R4, 0x00000000)
T321C 001:867.646 - 0.031ms returns 0x00
T321C 001:867.669 JLINK_WriteReg(R5, 0x00000000)
T321C 001:867.690 - 0.031ms returns 0x00
T321C 001:867.714 JLINK_WriteReg(R6, 0x00000000)
T321C 001:867.735 - 0.031ms returns 0x00
T321C 001:867.759 JLINK_WriteReg(R7, 0x00000000)
T321C 001:867.800 - 0.055ms returns 0x00
T321C 001:867.829 JLINK_WriteReg(R8, 0x00000000)
T321C 001:867.851 - 0.032ms returns 0x00
T321C 001:867.875 JLINK_WriteReg(R9, 0x2000017C)
T321C 001:867.896 - 0.031ms returns 0x00
T321C 001:867.919 JLINK_WriteReg(R10, 0x00000000)
T321C 001:867.943 - 0.038ms returns 0x00
T321C 001:867.979 JLINK_WriteReg(R11, 0x00000000)
T321C 001:868.016 - 0.051ms returns 0x00
T321C 001:868.044 JLINK_WriteReg(R12, 0x00000000)
T321C 001:868.066 - 0.032ms returns 0x00
T321C 001:868.090 JLINK_WriteReg(R13 (SP), 0x20001000)
T321C 001:868.113 - 0.033ms returns 0x00
T321C 001:868.137 JLINK_WriteReg(R14, 0x20000001)
T321C 001:868.158 - 0.032ms returns 0x00
T321C 001:868.182 JLINK_WriteReg(R15 (PC), 0x20000082)
T321C 001:868.204 - 0.032ms returns 0x00
T321C 001:868.227 JLINK_WriteReg(XPSR, 0x01000000)
T321C 001:868.249 - 0.032ms returns 0x00
T321C 001:868.272 JLINK_WriteReg(MSP, 0x20001000)
T321C 001:868.293 - 0.031ms returns 0x00
T321C 001:868.317 JLINK_WriteReg(PSP, 0x20001000)
T321C 001:868.338 - 0.031ms returns 0x00
T321C 001:868.375 JLINK_WriteReg(CFBP, 0x00000000)
T321C 001:868.405 - 0.041ms returns 0x00
T321C 001:868.433   JLINK_SetBPEx(Addr = 0x20000000, Type = 0xFFFFFFF2)
T321C 001:868.466 - 0.046ms returns 0x00000006
T321C 001:868.491 JLINK_Go()
T321C 001:868.539   CPU_ReadMem(4 bytes @ 0xE0001000)
T321C 001:872.679 - 4.223ms
T321C 001:872.735 JLINK_IsHalted()
T321C 001:876.318   CPU_ReadMem(2 bytes @ 0x20000000)
T321C 001:877.005 - 4.299ms returns TRUE
T321C 001:877.056 JLINK_ReadReg(R15 (PC))
T321C 001:877.084 - 0.039ms returns 0x20000000
T321C 001:877.107 JLINK_ClrBPEx(BPHandle = 0x00000006)
T321C 001:877.129 - 0.030ms returns 0x00
T321C 001:877.151 JLINK_ReadReg(R0)
T321C 001:877.170 - 0.028ms returns 0x00000000
T321C 001:956.724 JLINK_WriteMem(0x20000000, 0x0180 Bytes, ...)
T321C 001:956.769   Data:  00 BE 0A E0 0D 78 2D 06 68 40 08 24 40 00 00 D3 ...
T321C 001:956.833   CPU_WriteMem(384 bytes @ 0x20000000)
T321C 001:962.096 - 5.429ms returns 0x180
T321C 001:962.289 JLINK_WriteReg(R0, 0x08000000)
T321C 001:962.325 - 0.048ms returns 0x00
T321C 001:962.349 JLINK_WriteReg(R1, 0x044AA200)
T321C 001:962.370 - 0.030ms returns 0x00
T321C 001:962.391 JLINK_WriteReg(R2, 0x00000002)
T321C 001:962.411 - 0.028ms returns 0x00
T321C 001:962.432 JLINK_WriteReg(R3, 0x00000000)
T321C 001:962.451 - 0.028ms returns 0x00
T321C 001:962.472 JLINK_WriteReg(R4, 0x00000000)
T321C 001:962.491 - 0.028ms returns 0x00
T321C 001:962.512 JLINK_WriteReg(R5, 0x00000000)
T321C 001:962.531 - 0.028ms returns 0x00
T321C 001:962.552 JLINK_WriteReg(R6, 0x00000000)
T321C 001:962.571 - 0.028ms returns 0x00
T321C 001:962.592 JLINK_WriteReg(R7, 0x00000000)
T321C 001:962.611 - 0.027ms returns 0x00
T321C 001:962.632 JLINK_WriteReg(R8, 0x00000000)
T321C 001:962.651 - 0.028ms returns 0x00
T321C 001:962.672 JLINK_WriteReg(R9, 0x2000017C)
T321C 001:962.691 - 0.028ms returns 0x00
T321C 001:962.712 JLINK_WriteReg(R10, 0x00000000)
T321C 001:962.731 - 0.028ms returns 0x00
T321C 001:962.752 JLINK_WriteReg(R11, 0x00000000)
T321C 001:962.771 - 0.028ms returns 0x00
T321C 001:962.793 JLINK_WriteReg(R12, 0x00000000)
T321C 001:962.812 - 0.028ms returns 0x00
T321C 001:962.833 JLINK_WriteReg(R13 (SP), 0x20001000)
T321C 001:962.854 - 0.030ms returns 0x00
T321C 001:962.875 JLINK_WriteReg(R14, 0x20000001)
T321C 001:962.894 - 0.028ms returns 0x00
T321C 001:962.915 JLINK_WriteReg(R15 (PC), 0x20000054)
T321C 001:962.935 - 0.029ms returns 0x00
T321C 001:962.956 JLINK_WriteReg(XPSR, 0x01000000)
T321C 001:962.976 - 0.028ms returns 0x00
T321C 001:962.997 JLINK_WriteReg(MSP, 0x20001000)
T321C 001:963.016 - 0.028ms returns 0x00
T321C 001:963.037 JLINK_WriteReg(PSP, 0x20001000)
T321C 001:963.056 - 0.028ms returns 0x00
T321C 001:963.077 JLINK_WriteReg(CFBP, 0x00000000)
T321C 001:963.096 - 0.028ms returns 0x00
T321C 001:963.120   JLINK_SetBPEx(Addr = 0x20000000, Type = 0xFFFFFFF2)
T321C 001:963.162   CPU_ReadMem(2 bytes @ 0x20000000)
T321C 001:963.833 - 0.748ms returns 0x00000007
T321C 001:963.893 JLINK_Go()
T321C 001:963.926   CPU_WriteMem(2 bytes @ 0x20000000)
T321C 001:964.674   CPU_ReadMem(4 bytes @ 0xE0001000)
T321C 001:968.879 - 5.033ms
T321C 001:968.959 JLINK_IsHalted()
T321C 001:972.735   CPU_ReadMem(2 bytes @ 0x20000000)
T321C 001:973.439 - 4.517ms returns TRUE
T321C 001:973.511 JLINK_ReadReg(R15 (PC))
T321C 001:973.553 - 0.054ms returns 0x20000000
T321C 001:973.581 JLINK_ClrBPEx(BPHandle = 0x00000007)
T321C 001:973.618 - 0.052ms returns 0x00
T321C 001:973.661 JLINK_ReadReg(R0)
T321C 001:973.685 - 0.035ms returns 0x00000000
T321C 001:977.356 JLINK_WriteMem(0x20000180, 0x0280 Bytes, ...)
T321C 001:977.413   Data:  30 2A 00 20 F9 2B 00 08 01 2C 00 08 03 2C 00 08 ...
T321C 001:977.488   CPU_WriteMem(640 bytes @ 0x20000180)
T321C 001:985.867 - 8.567ms returns 0x280
T321C 001:985.950 JLINK_WriteMem(0x20000400, 0x0180 Bytes, ...)
T321C 001:985.976   Data:  AD F8 08 00 4F F4 2A 60 AD F8 0A 00 40 F2 FF 70 ...
T321C 001:986.046   CPU_WriteMem(384 bytes @ 0x20000400)
T321C 001:991.362 - 5.501ms returns 0x180
T321C 001:991.491 JLINK_WriteReg(R0, 0x08000000)
T321C 001:991.675 - 0.197ms returns 0x00
T321C 001:991.704 JLINK_WriteReg(R1, 0x00000400)
T321C 001:991.727 - 0.034ms returns 0x00
T321C 001:991.752 JLINK_WriteReg(R2, 0x20000180)
T321C 001:991.773 - 0.032ms returns 0x00
T321C 001:991.797 JLINK_WriteReg(R3, 0x00000000)
T321C 001:991.818 - 0.031ms returns 0x00
T321C 001:991.842 JLINK_WriteReg(R4, 0x00000000)
T321C 001:991.864 - 0.031ms returns 0x00
T321C 001:991.887 JLINK_WriteReg(R5, 0x00000000)
T321C 001:991.909 - 0.031ms returns 0x00
T321C 001:991.932 JLINK_WriteReg(R6, 0x00000000)
T321C 001:991.954 - 0.031ms returns 0x00
T321C 001:991.977 JLINK_WriteReg(R7, 0x00000000)
T321C 001:991.998 - 0.031ms returns 0x00
T321C 001:992.022 JLINK_WriteReg(R8, 0x00000000)
T321C 001:992.043 - 0.031ms returns 0x00
T321C 001:992.067 JLINK_WriteReg(R9, 0x2000017C)
T321C 001:992.088 - 0.031ms returns 0x00
T321C 001:992.121 JLINK_WriteReg(R10, 0x00000000)
T321C 001:992.144 - 0.033ms returns 0x00
T321C 001:992.168 JLINK_WriteReg(R11, 0x00000000)
T321C 001:992.189 - 0.031ms returns 0x00
T321C 001:992.213 JLINK_WriteReg(R12, 0x00000000)
T321C 001:992.234 - 0.031ms returns 0x00
T321C 001:992.258 JLINK_WriteReg(R13 (SP), 0x20001000)
T321C 001:992.283 - 0.034ms returns 0x00
T321C 001:992.306 JLINK_WriteReg(R14, 0x20000001)
T321C 001:992.328 - 0.031ms returns 0x00
T321C 001:992.351 JLINK_WriteReg(R15 (PC), 0x20000108)
T321C 001:992.374 - 0.032ms returns 0x00
T321C 001:992.397 JLINK_WriteReg(XPSR, 0x01000000)
T321C 001:992.419 - 0.032ms returns 0x00
T321C 001:992.443 JLINK_WriteReg(MSP, 0x20001000)
T321C 001:992.464 - 0.031ms returns 0x00
T321C 001:992.487 JLINK_WriteReg(PSP, 0x20001000)
T321C 001:992.509 - 0.031ms returns 0x00
T321C 001:992.532 JLINK_WriteReg(CFBP, 0x00000000)
T321C 001:992.554 - 0.031ms returns 0x00
T321C 001:992.581   JLINK_SetBPEx(Addr = 0x20000000, Type = 0xFFFFFFF2)
T321C 001:992.615 - 0.047ms returns 0x00000008
T321C 001:992.640 JLINK_Go()
T321C 001:992.691   CPU_ReadMem(4 bytes @ 0xE0001000)
T321C 001:996.993 - 4.391ms
T321C 001:997.055 JLINK_IsHalted()
T321C 001:997.769 - 0.746ms returns FALSE
T321C 002:080.639 JLINK_IsHalted()
T321C 002:084.524   CPU_ReadMem(2 bytes @ 0x20000000)
T321C 002:085.447 - 4.877ms returns TRUE
T321C 002:085.551 JLINK_ReadReg(R15 (PC))
T321C 002:085.590 - 0.051ms returns 0x20000000
T321C 002:085.617 JLINK_ClrBPEx(BPHandle = 0x00000008)
T321C 002:085.642 - 0.036ms returns 0x00
T321C 002:085.678 JLINK_ReadReg(R0)
T321C 002:085.714 - 0.054ms returns 0x00000000
T321C 002:092.872 JLINK_WriteMem(0x20000180, 0x0280 Bytes, ...)
T321C 002:092.929   Data:  48 70 9D F8 0E 00 00 EB D0 71 49 10 38 4A D1 70 ...
T321C 002:092.997   CPU_WriteMem(640 bytes @ 0x20000180)
T321C 002:101.252 - 8.436ms returns 0x280
T321C 002:101.333 JLINK_WriteMem(0x20000400, 0x0180 Bytes, ...)
T321C 002:101.358   Data:  42 0A F0 EE 62 0A 94 ED 12 2B B0 EE 42 1A F0 EE ...
T321C 002:101.414   CPU_WriteMem(384 bytes @ 0x20000400)
T321C 002:106.811 - 5.534ms returns 0x180
T321C 002:106.920 JLINK_WriteReg(R0, 0x08000400)
T321C 002:106.966 - 0.062ms returns 0x00
T321C 002:107.193 JLINK_WriteReg(R1, 0x00000400)
T321C 002:107.248 - 0.068ms returns 0x00
T321C 002:107.276 JLINK_WriteReg(R2, 0x20000180)
T321C 002:107.299 - 0.033ms returns 0x00
T321C 002:107.323 JLINK_WriteReg(R3, 0x00000000)
T321C 002:107.344 - 0.031ms returns 0x00
T321C 002:107.367 JLINK_WriteReg(R4, 0x00000000)
T321C 002:107.388 - 0.031ms returns 0x00
T321C 002:107.412 JLINK_WriteReg(R5, 0x00000000)
T321C 002:107.446 - 0.045ms returns 0x00
T321C 002:107.471 JLINK_WriteReg(R6, 0x00000000)
T321C 002:107.492 - 0.031ms returns 0x00
T321C 002:107.515 JLINK_WriteReg(R7, 0x00000000)
T321C 002:107.536 - 0.031ms returns 0x00
T321C 002:107.559 JLINK_WriteReg(R8, 0x00000000)
T321C 002:107.580 - 0.031ms returns 0x00
T321C 002:107.604 JLINK_WriteReg(R9, 0x2000017C)
T321C 002:107.632 - 0.038ms returns 0x00
T321C 002:107.656 JLINK_WriteReg(R10, 0x00000000)
T321C 002:107.677 - 0.031ms returns 0x00
T321C 002:107.701 JLINK_WriteReg(R11, 0x00000000)
T321C 002:107.739 - 0.048ms returns 0x00
T321C 002:107.762 JLINK_WriteReg(R12, 0x00000000)
T321C 002:107.785 - 0.045ms returns 0x00
T321C 002:107.859 JLINK_WriteReg(R13 (SP), 0x20001000)
T321C 002:107.885 - 0.036ms returns 0x00
T321C 002:107.909 JLINK_WriteReg(R14, 0x20000001)
T321C 002:107.930 - 0.031ms returns 0x00
T321C 002:107.953 JLINK_WriteReg(R15 (PC), 0x20000108)
T321C 002:107.975 - 0.032ms returns 0x00
T321C 002:107.998 JLINK_WriteReg(XPSR, 0x01000000)
T321C 002:108.020 - 0.031ms returns 0x00
T321C 002:108.043 JLINK_WriteReg(MSP, 0x20001000)
T321C 002:108.064 - 0.031ms returns 0x00
T321C 002:108.088 JLINK_WriteReg(PSP, 0x20001000)
T321C 002:108.110 - 0.031ms returns 0x00
T321C 002:108.133 JLINK_WriteReg(CFBP, 0x00000000)
T321C 002:108.154 - 0.031ms returns 0x00
T321C 002:108.181   JLINK_SetBPEx(Addr = 0x20000000, Type = 0xFFFFFFF2)
T321C 002:108.217 - 0.048ms returns 0x00000009
T321C 002:108.241 JLINK_Go()
T321C 002:108.294   CPU_ReadMem(4 bytes @ 0xE0001000)
T321C 002:112.510 - 4.322ms
T321C 002:112.590 JLINK_IsHalted()
T321C 002:113.280 - 0.730ms returns FALSE
T321C 002:174.503 JLINK_IsHalted()
T321C 002:178.370   CPU_ReadMem(2 bytes @ 0x20000000)
T321C 002:179.051 - 4.582ms returns TRUE
T321C 002:179.121 JLINK_ReadReg(R15 (PC))
T321C 002:179.155 - 0.046ms returns 0x20000000
T321C 002:179.181 JLINK_ClrBPEx(BPHandle = 0x00000009)
T321C 002:179.206 - 0.034ms returns 0x00
T321C 002:179.262 JLINK_ReadReg(R0)
T321C 002:179.298 - 0.050ms returns 0x00000000
T321C 002:185.031 JLINK_WriteMem(0x20000180, 0x0280 Bytes, ...)
T321C 002:185.082   Data:  02 0B 90 ED 02 1B B0 EE 41 0A F0 EE 61 0A 53 EC ...
T321C 002:185.142   CPU_WriteMem(640 bytes @ 0x20000180)
T321C 002:193.414 - 8.419ms returns 0x280
T321C 002:193.474 JLINK_WriteMem(0x20000400, 0x0180 Bytes, ...)
T321C 002:193.499   Data:  00 F0 C4 FA 05 22 0E 21 39 48 00 F0 BF FA 37 48 ...
T321C 002:193.555   CPU_WriteMem(384 bytes @ 0x20000400)
T321C 002:198.744 - 5.299ms returns 0x180
T321C 002:198.802 JLINK_WriteReg(R0, 0x08000800)
T321C 002:198.832 - 0.042ms returns 0x00
T321C 002:198.855 JLINK_WriteReg(R1, 0x00000400)
T321C 002:198.876 - 0.029ms returns 0x00
T321C 002:198.897 JLINK_WriteReg(R2, 0x20000180)
T321C 002:198.916 - 0.028ms returns 0x00
T321C 002:198.937 JLINK_WriteReg(R3, 0x00000000)
T321C 002:198.955 - 0.027ms returns 0x00
T321C 002:198.976 JLINK_WriteReg(R4, 0x00000000)
T321C 002:198.995 - 0.027ms returns 0x00
T321C 002:199.015 JLINK_WriteReg(R5, 0x00000000)
T321C 002:199.034 - 0.027ms returns 0x00
T321C 002:199.055 JLINK_WriteReg(R6, 0x00000000)
T321C 002:199.074 - 0.027ms returns 0x00
T321C 002:199.094 JLINK_WriteReg(R7, 0x00000000)
T321C 002:199.113 - 0.027ms returns 0x00
T321C 002:199.133 JLINK_WriteReg(R8, 0x00000000)
T321C 002:199.152 - 0.027ms returns 0x00
T321C 002:199.174 JLINK_WriteReg(R9, 0x2000017C)
T321C 002:199.207 - 0.047ms returns 0x00
T321C 002:199.238 JLINK_WriteReg(R10, 0x00000000)
T321C 002:199.269 - 0.046ms returns 0x00
T321C 002:199.298 JLINK_WriteReg(R11, 0x00000000)
T321C 002:199.318 - 0.029ms returns 0x00
T321C 002:199.340 JLINK_WriteReg(R12, 0x00000000)
T321C 002:199.359 - 0.028ms returns 0x00
T321C 002:199.379 JLINK_WriteReg(R13 (SP), 0x20001000)
T321C 002:199.401 - 0.030ms returns 0x00
T321C 002:199.421 JLINK_WriteReg(R14, 0x20000001)
T321C 002:199.441 - 0.028ms returns 0x00
T321C 002:199.461 JLINK_WriteReg(R15 (PC), 0x20000108)
T321C 002:199.481 - 0.028ms returns 0x00
T321C 002:199.501 JLINK_WriteReg(XPSR, 0x01000000)
T321C 002:199.521 - 0.028ms returns 0x00
T321C 002:199.541 JLINK_WriteReg(MSP, 0x20001000)
T321C 002:199.560 - 0.027ms returns 0x00
T321C 002:199.581 JLINK_WriteReg(PSP, 0x20001000)
T321C 002:199.600 - 0.027ms returns 0x00
T321C 002:199.620 JLINK_WriteReg(CFBP, 0x00000000)
T321C 002:199.639 - 0.027ms returns 0x00
T321C 002:199.663   JLINK_SetBPEx(Addr = 0x20000000, Type = 0xFFFFFFF2)
T321C 002:199.692 - 0.040ms returns 0x0000000A
T321C 002:199.713 JLINK_Go()
T321C 002:199.755   CPU_ReadMem(4 bytes @ 0xE0001000)
T321C 002:204.045 - 4.380ms
T321C 002:204.118 JLINK_IsHalted()
T321C 002:204.962 - 0.899ms returns FALSE
T321C 002:238.325 JLINK_IsHalted()
T321C 002:242.167   CPU_ReadMem(2 bytes @ 0x20000000)
T321C 002:243.027 - 4.740ms returns TRUE
T321C 002:243.107 JLINK_ReadReg(R15 (PC))
T321C 002:243.145 - 0.049ms returns 0x20000000
T321C 002:243.172 JLINK_ClrBPEx(BPHandle = 0x0000000A)
T321C 002:243.197 - 0.035ms returns 0x00
T321C 002:243.222 JLINK_ReadReg(R0)
T321C 002:243.244 - 0.032ms returns 0x00000000
T321C 002:246.548 JLINK_WriteMem(0x20000180, 0x0280 Bytes, ...)
T321C 002:246.600   Data:  00 24 18 E0 FF F7 6F FF 81 B2 2C 48 02 78 00 78 ...
T321C 002:246.660   CPU_WriteMem(640 bytes @ 0x20000180)
T321C 002:254.923 - 8.413ms returns 0x280
T321C 002:254.986 JLINK_WriteMem(0x20000400, 0x0180 Bytes, ...)
T321C 002:255.012   Data:  01 F0 A5 FC 64 1C B4 42 F1 DB 70 BD 00 BF 0A 49 ...
T321C 002:255.082   CPU_WriteMem(384 bytes @ 0x20000400)
T321C 002:260.342 - 5.396ms returns 0x180
T321C 002:260.416 JLINK_WriteReg(R0, 0x08000C00)
T321C 002:260.453 - 0.049ms returns 0x00
T321C 002:260.478 JLINK_WriteReg(R1, 0x00000400)
T321C 002:260.502 - 0.033ms returns 0x00
T321C 002:260.526 JLINK_WriteReg(R2, 0x20000180)
T321C 002:260.548 - 0.032ms returns 0x00
T321C 002:260.572 JLINK_WriteReg(R3, 0x00000000)
T321C 002:260.593 - 0.031ms returns 0x00
T321C 002:260.617 JLINK_WriteReg(R4, 0x00000000)
T321C 002:260.638 - 0.031ms returns 0x00
T321C 002:260.662 JLINK_WriteReg(R5, 0x00000000)
T321C 002:260.683 - 0.031ms returns 0x00
T321C 002:260.706 JLINK_WriteReg(R6, 0x00000000)
T321C 002:260.728 - 0.031ms returns 0x00
T321C 002:260.751 JLINK_WriteReg(R7, 0x00000000)
T321C 002:260.772 - 0.031ms returns 0x00
T321C 002:260.795 JLINK_WriteReg(R8, 0x00000000)
T321C 002:260.817 - 0.031ms returns 0x00
T321C 002:260.840 JLINK_WriteReg(R9, 0x2000017C)
T321C 002:260.861 - 0.032ms returns 0x00
T321C 002:260.885 JLINK_WriteReg(R10, 0x00000000)
T321C 002:260.907 - 0.032ms returns 0x00
T321C 002:260.931 JLINK_WriteReg(R11, 0x00000000)
T321C 002:260.953 - 0.032ms returns 0x00
T321C 002:260.977 JLINK_WriteReg(R12, 0x00000000)
T321C 002:260.999 - 0.031ms returns 0x00
T321C 002:261.030 JLINK_WriteReg(R13 (SP), 0x20001000)
T321C 002:261.054 - 0.035ms returns 0x00
T321C 002:261.078 JLINK_WriteReg(R14, 0x20000001)
T321C 002:261.100 - 0.032ms returns 0x00
T321C 002:261.124 JLINK_WriteReg(R15 (PC), 0x20000108)
T321C 002:261.147 - 0.033ms returns 0x00
T321C 002:261.170 JLINK_WriteReg(XPSR, 0x01000000)
T321C 002:261.192 - 0.032ms returns 0x00
T321C 002:261.215 JLINK_WriteReg(MSP, 0x20001000)
T321C 002:261.236 - 0.031ms returns 0x00
T321C 002:261.260 JLINK_WriteReg(PSP, 0x20001000)
T321C 002:261.281 - 0.031ms returns 0x00
T321C 002:261.304 JLINK_WriteReg(CFBP, 0x00000000)
T321C 002:261.325 - 0.031ms returns 0x00
T321C 002:261.352   JLINK_SetBPEx(Addr = 0x20000000, Type = 0xFFFFFFF2)
T321C 002:261.385 - 0.045ms returns 0x0000000B
T321C 002:261.408 JLINK_Go()
T321C 002:261.456   CPU_ReadMem(4 bytes @ 0xE0001000)
T321C 002:265.877 - 4.525ms
T321C 002:265.971 JLINK_IsHalted()
T321C 002:266.651 - 0.718ms returns FALSE
T321C 002:286.993 JLINK_IsHalted()
T321C 002:290.734   CPU_ReadMem(2 bytes @ 0x20000000)
T321C 002:291.461 - 4.505ms returns TRUE
T321C 002:291.522 JLINK_ReadReg(R15 (PC))
T321C 002:291.555 - 0.045ms returns 0x20000000
T321C 002:291.581 JLINK_ClrBPEx(BPHandle = 0x0000000B)
T321C 002:291.605 - 0.034ms returns 0x00
T321C 002:291.630 JLINK_ReadReg(R0)
T321C 002:291.651 - 0.032ms returns 0x00000000
T321C 002:296.335 JLINK_WriteMem(0x20000180, 0x0280 Bytes, ...)
T321C 002:296.386   Data:  8D 40 28 43 B3 4D 08 35 28 60 F0 BD 30 B5 CC 10 ...
T321C 002:296.449   CPU_WriteMem(640 bytes @ 0x20000180)
T321C 002:304.774 - 8.539ms returns 0x280
T321C 002:304.912 JLINK_WriteMem(0x20000400, 0x0180 Bytes, ...)
T321C 002:304.940   Data:  0C 06 08 2E F8 D1 F0 BD F0 B5 04 46 0D 46 16 46 ...
T321C 002:305.007   CPU_WriteMem(384 bytes @ 0x20000400)
T321C 002:310.345 - 5.472ms returns 0x180
T321C 002:310.432 JLINK_WriteReg(R0, 0x08001000)
T321C 002:310.477 - 0.057ms returns 0x00
T321C 002:310.502 JLINK_WriteReg(R1, 0x00000400)
T321C 002:310.525 - 0.033ms returns 0x00
T321C 002:310.549 JLINK_WriteReg(R2, 0x20000180)
T321C 002:310.570 - 0.031ms returns 0x00
T321C 002:310.594 JLINK_WriteReg(R3, 0x00000000)
T321C 002:310.615 - 0.031ms returns 0x00
T321C 002:310.638 JLINK_WriteReg(R4, 0x00000000)
T321C 002:310.659 - 0.031ms returns 0x00
T321C 002:310.683 JLINK_WriteReg(R5, 0x00000000)
T321C 002:310.704 - 0.031ms returns 0x00
T321C 002:310.727 JLINK_WriteReg(R6, 0x00000000)
T321C 002:310.748 - 0.031ms returns 0x00
T321C 002:310.771 JLINK_WriteReg(R7, 0x00000000)
T321C 002:310.792 - 0.031ms returns 0x00
T321C 002:310.815 JLINK_WriteReg(R8, 0x00000000)
T321C 002:310.836 - 0.031ms returns 0x00
T321C 002:310.860 JLINK_WriteReg(R9, 0x2000017C)
T321C 002:310.880 - 0.031ms returns 0x00
T321C 002:310.904 JLINK_WriteReg(R10, 0x00000000)
T321C 002:310.925 - 0.031ms returns 0x00
T321C 002:310.948 JLINK_WriteReg(R11, 0x00000000)
T321C 002:310.969 - 0.031ms returns 0x00
T321C 002:310.992 JLINK_WriteReg(R12, 0x00000000)
T321C 002:311.014 - 0.031ms returns 0x00
T321C 002:311.037 JLINK_WriteReg(R13 (SP), 0x20001000)
T321C 002:311.061 - 0.033ms returns 0x00
T321C 002:311.085 JLINK_WriteReg(R14, 0x20000001)
T321C 002:311.106 - 0.031ms returns 0x00
T321C 002:311.129 JLINK_WriteReg(R15 (PC), 0x20000108)
T321C 002:311.159 - 0.040ms returns 0x00
T321C 002:311.183 JLINK_WriteReg(XPSR, 0x01000000)
T321C 002:311.205 - 0.032ms returns 0x00
T321C 002:311.228 JLINK_WriteReg(MSP, 0x20001000)
T321C 002:311.250 - 0.031ms returns 0x00
T321C 002:311.273 JLINK_WriteReg(PSP, 0x20001000)
T321C 002:311.294 - 0.031ms returns 0x00
T321C 002:311.317 JLINK_WriteReg(CFBP, 0x00000000)
T321C 002:311.341 - 0.034ms returns 0x00
T321C 002:311.368   JLINK_SetBPEx(Addr = 0x20000000, Type = 0xFFFFFFF2)
T321C 002:311.402 - 0.046ms returns 0x0000000C
T321C 002:311.426 JLINK_Go()
T321C 002:311.474   CPU_ReadMem(4 bytes @ 0xE0001000)
T321C 002:315.663 - 4.273ms
T321C 002:315.724 JLINK_IsHalted()
T321C 002:316.236 - 0.547ms returns FALSE
T321C 002:331.341 JLINK_IsHalted()
T321C 002:335.258   CPU_ReadMem(2 bytes @ 0x20000000)
T321C 002:335.941 - 4.652ms returns TRUE
T321C 002:336.045 JLINK_ReadReg(R15 (PC))
T321C 002:336.089 - 0.057ms returns 0x20000000
T321C 002:336.118 JLINK_ClrBPEx(BPHandle = 0x0000000C)
T321C 002:336.144 - 0.037ms returns 0x00
T321C 002:336.172 JLINK_ReadReg(R0)
T321C 002:336.196 - 0.035ms returns 0x00000000
T321C 002:344.549 JLINK_WriteMem(0x20000180, 0x0280 Bytes, ...)
T321C 002:344.605   Data:  09 D1 01 21 48 06 01 F0 3E F8 00 21 4F F0 00 70 ...
T321C 002:344.684   CPU_WriteMem(640 bytes @ 0x20000180)
T321C 002:352.951 - 8.460ms returns 0x280
T321C 002:353.039 JLINK_WriteMem(0x20000400, 0x0180 Bytes, ...)
T321C 002:353.076   Data:  00 21 11 60 11 46 09 68 21 F0 01 01 11 60 70 47 ...
T321C 002:353.159   CPU_WriteMem(384 bytes @ 0x20000400)
T321C 002:358.398 - 5.399ms returns 0x180
T321C 002:358.474 JLINK_WriteReg(R0, 0x08001400)
T321C 002:358.512 - 0.050ms returns 0x00
T321C 002:358.538 JLINK_WriteReg(R1, 0x00000400)
T321C 002:358.561 - 0.033ms returns 0x00
T321C 002:358.585 JLINK_WriteReg(R2, 0x20000180)
T321C 002:358.608 - 0.032ms returns 0x00
T321C 002:358.631 JLINK_WriteReg(R3, 0x00000000)
T321C 002:358.653 - 0.031ms returns 0x00
T321C 002:358.676 JLINK_WriteReg(R4, 0x00000000)
T321C 002:358.697 - 0.031ms returns 0x00
T321C 002:358.721 JLINK_WriteReg(R5, 0x00000000)
T321C 002:358.742 - 0.031ms returns 0x00
T321C 002:358.765 JLINK_WriteReg(R6, 0x00000000)
T321C 002:358.786 - 0.031ms returns 0x00
T321C 002:358.810 JLINK_WriteReg(R7, 0x00000000)
T321C 002:358.831 - 0.031ms returns 0x00
T321C 002:358.855 JLINK_WriteReg(R8, 0x00000000)
T321C 002:358.876 - 0.031ms returns 0x00
T321C 002:358.900 JLINK_WriteReg(R9, 0x2000017C)
T321C 002:358.921 - 0.032ms returns 0x00
T321C 002:358.945 JLINK_WriteReg(R10, 0x00000000)
T321C 002:358.967 - 0.032ms returns 0x00
T321C 002:359.003 JLINK_WriteReg(R11, 0x00000000)
T321C 002:359.040 - 0.047ms returns 0x00
T321C 002:359.064 JLINK_WriteReg(R12, 0x00000000)
T321C 002:359.086 - 0.032ms returns 0x00
T321C 002:359.109 JLINK_WriteReg(R13 (SP), 0x20001000)
T321C 002:359.137 - 0.038ms returns 0x00
T321C 002:359.161 JLINK_WriteReg(R14, 0x20000001)
T321C 002:359.183 - 0.032ms returns 0x00
T321C 002:359.207 JLINK_WriteReg(R15 (PC), 0x20000108)
T321C 002:359.229 - 0.032ms returns 0x00
T321C 002:359.253 JLINK_WriteReg(XPSR, 0x01000000)
T321C 002:359.275 - 0.032ms returns 0x00
T321C 002:359.298 JLINK_WriteReg(MSP, 0x20001000)
T321C 002:359.319 - 0.031ms returns 0x00
T321C 002:359.343 JLINK_WriteReg(PSP, 0x20001000)
T321C 002:359.365 - 0.031ms returns 0x00
T321C 002:359.388 JLINK_WriteReg(CFBP, 0x00000000)
T321C 002:359.410 - 0.031ms returns 0x00
T321C 002:359.437   JLINK_SetBPEx(Addr = 0x20000000, Type = 0xFFFFFFF2)
T321C 002:359.470 - 0.046ms returns 0x0000000D
T321C 002:359.494 JLINK_Go()
T321C 002:359.543   CPU_ReadMem(4 bytes @ 0xE0001000)
T321C 002:363.753 - 4.321ms
T321C 002:363.851 JLINK_IsHalted()
T321C 002:364.508 - 0.695ms returns FALSE
T321C 002:423.883 JLINK_IsHalted()
T321C 002:427.584   CPU_ReadMem(2 bytes @ 0x20000000)
T321C 002:428.363 - 4.515ms returns TRUE
T321C 002:428.423 JLINK_ReadReg(R15 (PC))
T321C 002:428.457 - 0.045ms returns 0x20000000
T321C 002:428.483 JLINK_ClrBPEx(BPHandle = 0x0000000D)
T321C 002:428.508 - 0.035ms returns 0x00
T321C 002:428.533 JLINK_ReadReg(R0)
T321C 002:428.555 - 0.032ms returns 0x00000000
T321C 002:434.559 JLINK_WriteMem(0x20000180, 0x0280 Bytes, ...)
T321C 002:434.614   Data:  0B 7B 44 EA 03 23 CC 7A 23 43 02 F5 C0 74 04 EB ...
T321C 002:434.677   CPU_WriteMem(640 bytes @ 0x20000180)
T321C 002:442.986 - 8.464ms returns 0x280
T321C 002:443.049 JLINK_WriteMem(0x20000400, 0x0180 Bytes, ...)
